T3434 325:911 SEGGER J-Link V6.32i Log File (0000ms, 1074ms total)
T3434 325:911 DLL Compiled: Jul 24 2018 15:19:55 (0000ms, 1074ms total)
T3434 325:911 Logging started @ 2026-03-24 20:28 (0000ms, 1074ms total)
T3434 325:912 JLINK_SetWarnOutHandler(...) (0000ms, 1075ms total)
T3434 325:912 JLINK_OpenEx(...)
Firmware: J-Link V9 compiled May  7 2021 16:26:12
Hardware: V9.70
S/N: 59700618
Feature(s): RDI, FlashBP, FlashDL, JFlash, GDB
TELNET listener socket opened on port 19021WEBSRV 
Starting webserver (0012ms, 1087ms total)
T3434 325:912 WEBSRV Webserver running on local port 19080 (0012ms, 1087ms total)
T3434 325:912   returns O.K. (0012ms, 1087ms total)
T3434 325:924 JLINK_GetEmuCaps()  returns 0xB9FF7BBF (0000ms, 1087ms total)
T3434 325:924 JLINK_TIF_GetAvailable(...) (0001ms, 1088ms total)
T3434 325:925 JLINK_SetErrorOutHandler(...) (0000ms, 1088ms total)
T3434 325:925 JLINK_ExecCommand("ProjectFile = "C:\Users\since\Desktop\MCU-2026-0312-main\JLinkSettings.ini"", ...).   returns 0x00 (0000ms, 1088ms total)
T3434 325:926 JLINK_ExecCommand("Device = TM4C123GH6PM", ...). Device "TM4C123GH6PM" selected.  returns 0x00 (0002ms, 1090ms total)
T3434 325:928 JLINK_ExecCommand("DisableConnectionTimeout", ...).   returns 0x01 (0000ms, 1090ms total)
T3434 325:928 JLINK_GetHardwareVersion()  returns 0x17AE8 (0000ms, 1090ms total)
T3434 325:928 JLINK_GetDLLVersion()  returns 63209 (0000ms, 1090ms total)
T3434 325:928 JLINK_GetFirmwareString(...) (0000ms, 1090ms total)
T3434 325:941 JLINK_GetDLLVersion()  returns 63209 (0000ms, 1090ms total)
T3434 325:941 JLINK_GetCompileDateTime() (0000ms, 1090ms total)
T3434 325:947 JLINK_GetFirmwareString(...) (0000ms, 1090ms total)
T3434 325:958 JLINK_GetHardwareVersion()  returns 0x17AE8 (0000ms, 1090ms total)
T3434 325:972 JLINK_TIF_Select(JLINKARM_TIF_SWD)  returns 0x00 (0001ms, 1091ms total)
T3434 325:973 JLINK_SetSpeed(10000) (0000ms, 1091ms total)
T3434 325:973 JLINK_GetId() >0x10B TIF>Found SW-DP with ID 0x2BA01477 >0x0D TIF> >0x28 TIF> >0x0D TIF> >0x28 TIF> >0x0D TIF> >0x28 TIF> >0x0D TIF> >0x28 TIF> >0x0D TIF> >0x21 TIF> >0x0D TIF> >0x28 TIF>Scanning AP map to find all available APs >0x0D TIF> >0x28 TIF> >0x0D TIF> >0x21 TIF> >0x0D TIF> >0x21 TIF> >0x0D TIF> >0x28 TIF> >0x0D TIF> >0x21 TIF> >0x0D TIF> >0x21 TIF>AP[1]: Stopped AP scan as end of AP map has been reachedAP[0]: AHB-AP (IDR: 0x24770011)Iterating through AP map to find AHB-AP to use
 >0x42 TIF> >0x28 TIF> >0x0D TIF> >0x28 TIF> >0x0D TIF> >0x21 TIF> >0x0D TIF> >0x21 TIF> >0x42 TIF> >0x28 TIF> >0x0D TIF> >0x28 TIF> >0x0D TIF> >0x28 TIF> >0x0D TIF> >0x21 TIF> >0x0D TIF> >0x21 TIF>AP[0]: Core foundAP[0]: AHB-AP ROM base: 0xE00FF000 >0x0D TIF> >0x28 TIF> >0x0D TIF> >0x28 TIF> >0x0D TIF> >0x28 TIF> >0x0D TIF> >0x21 TIF> >0x0D TIF> >0x21 TIF>CPUID register: 0x410FC241. Implementer code: 0x41 (ARM)Found Cortex-M4 r0p1, Little endian. -- Max. mem block: 0x00011008
 -- CPU_ReadMem(4 bytes @ 0xE000EDF0) -- CPU_WriteMem(4 bytes @ 0xE000EDF0) -- CPU_ReadMem(4 bytes @ 0xE0002000)FPUnit: 6 code (BP) slots and 2 literal slots -- CPU_ReadMem(4 bytes @ 0xE000EDFC) -- CPU_WriteMem(4 bytes @ 0xE000EDFC) -- CPU_ReadMem(4 bytes @ 0xE0001000) -- CPU_WriteMem(4 bytes @ 0xE0001000) -- CPU_ReadMem(4 bytes @ 0xE000ED88) -- CPU_WriteMem(4 bytes @ 0xE000ED88) -- CPU_ReadMem(4 bytes @ 0xE000ED88) -- CPU_WriteMem(4 bytes @ 0xE000ED88)CoreSight components:ROMTbl[0] @ E00FF000
 -- CPU_ReadMem(16 bytes @ 0xE00FF000) -- CPU_ReadMem(16 bytes @ 0xE000EFF0) -- CPU_ReadMem(16 bytes @ 0xE000EFE0)ROMTbl[0][0]: E000E000, CID: B105E00D, PID: 000BB00C SCS-M7 -- CPU_ReadMem(16 bytes @ 0xE0001FF0) -- CPU_ReadMem(16 bytes @ 0xE0001FE0)ROMTbl[0][1]: E0001000, CID: B105E00D, PID: 003BB002 DWT -- CPU_ReadMem(16 bytes @ 0xE0002FF0) -- CPU_ReadMem(16 bytes @ 0xE0002FE0)ROMTbl[0][2]: E0002000, CID: B105E00D, PID: 002BB003 FPB -- CPU_ReadMem(16 bytes @ 0xE0000FF0)
 -- CPU_ReadMem(16 bytes @ 0xE0000FE0)ROMTbl[0][3]: E0000000, CID: B105E00D, PID: 003BB001 ITM -- CPU_ReadMem(16 bytes @ 0xE00FF010) -- CPU_ReadMem(16 bytes @ 0xE0040FF0) -- CPU_ReadMem(16 bytes @ 0xE0040FE0)ROMTbl[0][4]: E0040000, CID: B105900D, PID: 000BB9A1 TPIU -- CPU_ReadMem(16 bytes @ 0xE0041FF0) -- CPU_ReadMem(16 bytes @ 0xE0041FE0)ROMTbl[0][5]: E0041000, CID: B105900D, PID: 000BB925 ETM -- CPU_ReadMem(4 bytes @ 0x400FE0F0) >0x0D TIF> >0x21 TIF>  returns 0x2BA01477 (0173ms, 1264ms total)
T3434 326:146 JLINK_GetDLLVersion()  returns 63209 (0000ms, 1264ms total)
T3434 326:146 JLINK_CORE_GetFound()  returns 0xE0000FF (0000ms, 1264ms total)
T3434 326:146 JLINK_GetDebugInfo(0x100 = JLINKARM_ROM_TABLE_ADDR_INDEX) -- Value=0xE00FF000  returns 0x00 (0000ms, 1264ms total)
T3434 326:149 JLINK_GetDebugInfo(0x100 = JLINKARM_ROM_TABLE_ADDR_INDEX) -- Value=0xE00FF000  returns 0x00 (0000ms, 1264ms total)
T3434 326:149 JLINK_GetDebugInfo(0x101 = JLINKARM_DEBUG_INFO_ETM_ADDR_INDEX) -- Value=0xE0041000  returns 0x00 (0000ms, 1264ms total)
T3434 326:149 JLINK_ReadMemEx(0xE0041FD0, 0x0020 Bytes, ..., Flags = 0x02000004) -- CPU_ReadMem(32 bytes @ 0xE0041FD0) - Data: 04 00 00 00 00 00 00 00 00 00 00 00 00 00 00 00 ...  returns 0x20 (0000ms, 1264ms total)
T3434 326:149 JLINK_GetDebugInfo(0x102 = JLINKARM_DEBUG_INFO_MTB_ADDR_INDEX) -- Value=0x00000000  returns 0x00 (0000ms, 1264ms total)
T3434 326:149 JLINK_GetDebugInfo(0x103 = JLINKARM_DEBUG_INFO_TPIU_ADDR_INDEX) -- Value=0xE0040000  returns 0x00 (0000ms, 1264ms total)
T3434 326:149 JLINK_GetDebugInfo(0x104 = JLINKARM_DEBUG_INFO_ITM_ADDR_INDEX) -- Value=0xE0000000  returns 0x00 (0000ms, 1264ms total)
T3434 326:149 JLINK_GetDebugInfo(0x105 = JLINKARM_DEBUG_INFO_DWT_ADDR_INDEX) -- Value=0xE0001000  returns 0x00 (0000ms, 1264ms total)
T3434 326:149 JLINK_GetDebugInfo(0x106 = JLINKARM_DEBUG_INFO_FPB_ADDR_INDEX) -- Value=0xE0002000  returns 0x00 (0000ms, 1264ms total)
T3434 326:149 JLINK_GetDebugInfo(0x107 = JLINKARM_DEBUG_INFO_NVIC_ADDR_INDEX) -- Value=0xE000E000  returns 0x00 (0000ms, 1264ms total)
T3434 326:149 JLINK_GetDebugInfo(0x10C = JLINKARM_DEBUG_INFO_DBG_ADDR_INDEX) -- Value=0xE000EDF0  returns 0x00 (0000ms, 1264ms total)
T3434 326:149 JLINK_GetDebugInfo(0x01 = Unknown) -- Value=0x00000001  returns 0x00 (0000ms, 1264ms total)
T3434 326:149 JLINK_ReadMemU32(0xE000ED00, 0x0001 Items, ...) -- CPU_ReadMem(4 bytes @ 0xE000ED00) - Data: 41 C2 0F 41  returns 0x01 (0001ms, 1265ms total)
T3434 326:150 JLINK_GetDebugInfo(0x10F = JLINKARM_DEBUG_INFO_HAS_CORTEX_M_SECURITY_EXT_INDEX) -- Value=0x00000000  returns 0x00 (0000ms, 1265ms total)
T3434 326:150 JLINK_SetResetType(JLINKARM_CM3_RESET_TYPE_NORMAL)  returns JLINKARM_CM3_RESET_TYPE_NORMAL (0000ms, 1265ms total)
T3434 326:150 JLINK_Reset() -- CPU is running -- CPU_WriteMem(4 bytes @ 0xE000EDF0) -- CPU is running -- CPU_WriteMem(4 bytes @ 0xE000EDFC)Reset: Halt core after reset via DEMCR.VC_CORERESET. >0x35 TIF>Reset: Reset device via AIRCR.SYSRESETREQ. -- CPU is running -- CPU_WriteMem(4 bytes @ 0xE000ED0C) >0x0D TIF> >0x28 TIF> -- CPU_ReadMem(4 bytes @ 0xE000EDF0) -- CPU_ReadMem(4 bytes @ 0xE000EDF0) -- CPU is running -- CPU_WriteMem(4 bytes @ 0xE000EDF0) -- CPU is running -- CPU_WriteMem(4 bytes @ 0xE000EDFC)
 -- CPU_ReadMem(4 bytes @ 0xE000EDF0) -- CPU_ReadMem(4 bytes @ 0x400FE0F0) -- CPU_WriteMem(4 bytes @ 0xE0002000) -- CPU_ReadMem(4 bytes @ 0xE000EDFC) -- CPU_ReadMem(4 bytes @ 0xE0001000) (0069ms, 1334ms total)
T3434 326:219 JLINK_Halt()  returns 0x00 (0000ms, 1334ms total)
T3434 326:219 JLINK_ReadMemU32(0xE000EDF0, 0x0001 Items, ...) -- CPU_ReadMem(4 bytes @ 0xE000EDF0) - Data: 03 00 03 00  returns 0x01 (0000ms, 1334ms total)
T3434 326:219 JLINK_WriteU32(0xE000EDF0, 0xA05F0003) -- CPU_WriteMem(4 bytes @ 0xE000EDF0)  returns 0x00 (0000ms, 1334ms total)
T3434 326:219 JLINK_WriteU32(0xE000EDFC, 0x01000000) -- CPU_WriteMem(4 bytes @ 0xE000EDFC)  returns 0x00 (0001ms, 1335ms total)
T3434 326:230 JLINK_GetHWStatus(...)  returns 0x00 (0000ms, 1335ms total)
T3434 326:238 JLINK_GetNumBPUnits(Type = 0xFFFFFF00)  returns 0x06 (0000ms, 1335ms total)
T3434 326:238 JLINK_GetNumBPUnits(Type = 0xF0)  returns 0x2000 (0000ms, 1335ms total)
T3434 326:238 JLINK_GetNumWPUnits()  returns 0x04 (0000ms, 1335ms total)
T3434 326:246 JLINK_GetSpeed()  returns 0x1770 (0000ms, 1335ms total)
T3434 326:251 JLINK_ReadMemU32(0xE000E004, 0x0001 Items, ...) -- CPU_ReadMem(4 bytes @ 0xE000E004) - Data: 04 00 00 00  returns 0x01 (0001ms, 1336ms total)
T3434 326:252 JLINK_ReadMemU32(0xE000E004, 0x0001 Items, ...) -- CPU_ReadMem(4 bytes @ 0xE000E004) - Data: 04 00 00 00  returns 0x01 (0000ms, 1336ms total)
T3434 326:252 JLINK_WriteMemEx(0xE0001000, 0x001C Bytes, ..., Flags = 0x02000004) - Data: 01 00 00 00 00 00 00 00 00 00 00 00 00 00 00 00 ... -- CPU_WriteMem(28 bytes @ 0xE0001000)  returns 0x1C (0001ms, 1337ms total)
T3434 326:253 JLINK_Halt()  returns 0x00 (0000ms, 1337ms total)
T3434 326:253 JLINK_IsHalted()  returns TRUE (0000ms, 1337ms total)
T3434 326:265 JLINK_WriteMem(0x20000000, 0x0128 Bytes, ...) - Data: 00 BE 0A E0 0D 78 2D 06 68 40 08 24 40 00 00 D3 ... -- CPU_WriteMem(296 bytes @ 0x20000000)  returns 0x128 (0001ms, 1338ms total)
T3434 326:266 JLINK_WriteReg(R0, 0x00000000)  returns 0x00 (0000ms, 1338ms total)
T3434 326:266 JLINK_WriteReg(R1, 0x00B71B00)  returns 0x00 (0000ms, 1338ms total)
T3434 326:266 JLINK_WriteReg(R2, 0x00000001)  returns 0x00 (0000ms, 1338ms total)
T3434 326:266 JLINK_WriteReg(R3, 0x00000000)  returns 0x00 (0000ms, 1338ms total)
T3434 326:266 JLINK_WriteReg(R4, 0x00000000)  returns 0x00 (0000ms, 1338ms total)
T3434 326:266 JLINK_WriteReg(R5, 0x00000000)  returns 0x00 (0000ms, 1338ms total)
T3434 326:266 JLINK_WriteReg(R6, 0x00000000)  returns 0x00 (0000ms, 1338ms total)
T3434 326:266 JLINK_WriteReg(R7, 0x00000000)  returns 0x00 (0000ms, 1338ms total)
T3434 326:266 JLINK_WriteReg(R8, 0x00000000)  returns 0x00 (0000ms, 1338ms total)
T3434 326:266 JLINK_WriteReg(R9, 0x20000124)  returns 0x00 (0000ms, 1338ms total)
T3434 326:266 JLINK_WriteReg(R10, 0x00000000)  returns 0x00 (0000ms, 1338ms total)
T3434 326:266 JLINK_WriteReg(R11, 0x00000000)  returns 0x00 (0000ms, 1338ms total)
T3434 326:266 JLINK_WriteReg(R12, 0x00000000)  returns 0x00 (0000ms, 1338ms total)
T3434 326:266 JLINK_WriteReg(R13 (SP), 0x20001000)  returns 0x00 (0000ms, 1338ms total)
T3434 326:266 JLINK_WriteReg(R14, 0x20000001)  returns 0x00 (0000ms, 1338ms total)
T3434 326:266 JLINK_WriteReg(R15 (PC), 0x20000038)  returns 0x00 (0000ms, 1338ms total)
T3434 326:266 JLINK_WriteReg(XPSR, 0x01000000)  returns 0x00 (0000ms, 1338ms total)
T3434 326:266 JLINK_WriteReg(MSP, 0x20001000)  returns 0x00 (0000ms, 1338ms total)
T3434 326:266 JLINK_WriteReg(PSP, 0x20001000)  returns 0x00 (0000ms, 1338ms total)
T3434 326:266 JLINK_WriteReg(CFBP, 0x00000000)  returns 0x00 (0000ms, 1338ms total)
T3434 326:266 JLINK_SetBPEx(Addr = 0x20000000, Type = 0xFFFFFFF2) -- CPU_ReadMem(2 bytes @ 0x20000000)  returns 0x00000001 (0002ms, 1340ms total)
T3434 326:268 JLINK_Go() -- CPU_WriteMem(2 bytes @ 0x20000000) -- CPU_ReadMem(4 bytes @ 0xE0001000) -- CPU_WriteMem(4 bytes @ 0xE0002008) -- CPU_WriteMem(4 bytes @ 0xE000200C) -- CPU_WriteMem(4 bytes @ 0xE0002010) -- CPU_WriteMem(4 bytes @ 0xE0002014) -- CPU_WriteMem(4 bytes @ 0xE0002018) -- CPU_WriteMem(4 bytes @ 0xE000201C) -- CPU_WriteMem(4 bytes @ 0xE0001004) (0002ms, 1342ms total)
T3434 326:270 JLINK_IsHalted() -- CPU_ReadMem(2 bytes @ 0x20000000)  returns TRUE (0002ms, 1344ms total)
T3434 326:272 JLINK_ReadReg(R15 (PC))  returns 0x20000000 (0000ms, 1342ms total)
T3434 326:272 JLINK_ClrBPEx(BPHandle = 0x00000001)  returns 0x00 (0000ms, 1342ms total)
T3434 326:272 JLINK_ReadReg(R0)  returns 0x00000000 (0000ms, 1342ms total)
T3434 326:273 JLINK_WriteReg(R0, 0x00000000)  returns 0x00 (0000ms, 1342ms total)
T3434 326:273 JLINK_WriteReg(R1, 0x00B71B00)  returns 0x00 (0000ms, 1342ms total)
T3434 326:273 JLINK_WriteReg(R2, 0x00000001)  returns 0x00 (0000ms, 1342ms total)
T3434 326:273 JLINK_WriteReg(R3, 0x00000000)  returns 0x00 (0000ms, 1342ms total)
T3434 326:273 JLINK_WriteReg(R4, 0x00000000)  returns 0x00 (0000ms, 1342ms total)
T3434 326:273 JLINK_WriteReg(R5, 0x00000000)  returns 0x00 (0000ms, 1342ms total)
T3434 326:273 JLINK_WriteReg(R6, 0x00000000)  returns 0x00 (0000ms, 1342ms total)
T3434 326:273 JLINK_WriteReg(R7, 0x00000000)  returns 0x00 (0000ms, 1342ms total)
T3434 326:273 JLINK_WriteReg(R8, 0x00000000)  returns 0x00 (0000ms, 1342ms total)
T3434 326:273 JLINK_WriteReg(R9, 0x20000124)  returns 0x00 (0000ms, 1342ms total)
T3434 326:273 JLINK_WriteReg(R10, 0x00000000)  returns 0x00 (0000ms, 1342ms total)
T3434 326:273 JLINK_WriteReg(R11, 0x00000000)  returns 0x00 (0000ms, 1342ms total)
T3434 326:273 JLINK_WriteReg(R12, 0x00000000)  returns 0x00 (0000ms, 1342ms total)
T3434 326:273 JLINK_WriteReg(R13 (SP), 0x20001000)  returns 0x00 (0000ms, 1342ms total)
T3434 326:273 JLINK_WriteReg(R14, 0x20000001)  returns 0x00 (0000ms, 1342ms total)
T3434 326:273 JLINK_WriteReg(R15 (PC), 0x20000056)  returns 0x00 (0000ms, 1342ms total)
T3434 326:273 JLINK_WriteReg(XPSR, 0x01000000)  returns 0x00 (0000ms, 1342ms total)
T3434 326:273 JLINK_WriteReg(MSP, 0x20001000)  returns 0x00 (0000ms, 1342ms total)
T3434 326:273 JLINK_WriteReg(PSP, 0x20001000)  returns 0x00 (0000ms, 1342ms total)
T3434 326:273 JLINK_WriteReg(CFBP, 0x00000000)  returns 0x00 (0000ms, 1342ms total)
T3434 326:273 JLINK_SetBPEx(Addr = 0x20000000, Type = 0xFFFFFFF2)  returns 0x00000002 (0000ms, 1342ms total)
T3434 326:273 JLINK_Go() -- CPU_ReadMem(4 bytes @ 0xE0001000) (0001ms, 1343ms total)
T3434 326:274 JLINK_IsHalted()  returns FALSE (0000ms, 1343ms total)
T3434 326:307 JLINK_IsHalted() -- CPU_ReadMem(2 bytes @ 0x20000000)  returns TRUE (0002ms, 1345ms total)
T3434 326:309 JLINK_ReadReg(R15 (PC))  returns 0x20000000 (0000ms, 1343ms total)
T3434 326:309 JLINK_ClrBPEx(BPHandle = 0x00000002)  returns 0x00 (0000ms, 1343ms total)
T3434 326:309 JLINK_ReadReg(R0)  returns 0x00000000 (0000ms, 1343ms total)
T3434 326:360 JLINK_WriteReg(R0, 0x00000001)  returns 0x00 (0000ms, 1343ms total)
T3434 326:360 JLINK_WriteReg(R1, 0x00B71B00)  returns 0x00 (0000ms, 1343ms total)
T3434 326:360 JLINK_WriteReg(R2, 0x00000001)  returns 0x00 (0000ms, 1343ms total)
T3434 326:360 JLINK_WriteReg(R3, 0x00000000)  returns 0x00 (0000ms, 1343ms total)
T3434 326:360 JLINK_WriteReg(R4, 0x00000000)  returns 0x00 (0000ms, 1343ms total)
T3434 326:360 JLINK_WriteReg(R5, 0x00000000)  returns 0x00 (0000ms, 1343ms total)
T3434 326:360 JLINK_WriteReg(R6, 0x00000000)  returns 0x00 (0000ms, 1343ms total)
T3434 326:360 JLINK_WriteReg(R7, 0x00000000)  returns 0x00 (0000ms, 1343ms total)
T3434 326:360 JLINK_WriteReg(R8, 0x00000000)  returns 0x00 (0000ms, 1343ms total)
T3434 326:360 JLINK_WriteReg(R9, 0x20000124)  returns 0x00 (0000ms, 1343ms total)
T3434 326:360 JLINK_WriteReg(R10, 0x00000000)  returns 0x00 (0000ms, 1343ms total)
T3434 326:360 JLINK_WriteReg(R11, 0x00000000)  returns 0x00 (0000ms, 1343ms total)
T3434 326:360 JLINK_WriteReg(R12, 0x00000000)  returns 0x00 (0000ms, 1343ms total)
T3434 326:360 JLINK_WriteReg(R13 (SP), 0x20001000)  returns 0x00 (0001ms, 1344ms total)
T3434 326:361 JLINK_WriteReg(R14, 0x20000001)  returns 0x00 (0000ms, 1344ms total)
T3434 326:361 JLINK_WriteReg(R15 (PC), 0x20000052)  returns 0x00 (0000ms, 1344ms total)
T3434 326:361 JLINK_WriteReg(XPSR, 0x01000000)  returns 0x00 (0000ms, 1344ms total)
T3434 326:361 JLINK_WriteReg(MSP, 0x20001000)  returns 0x00 (0000ms, 1344ms total)
T3434 326:361 JLINK_WriteReg(PSP, 0x20001000)  returns 0x00 (0000ms, 1344ms total)
T3434 326:361 JLINK_WriteReg(CFBP, 0x00000000)  returns 0x00 (0000ms, 1344ms total)
T3434 326:361 JLINK_SetBPEx(Addr = 0x20000000, Type = 0xFFFFFFF2)  returns 0x00000003 (0000ms, 1344ms total)
T3434 326:361 JLINK_Go() -- CPU_ReadMem(4 bytes @ 0xE0001000) (0000ms, 1344ms total)
T3434 326:361 JLINK_IsHalted() -- CPU_ReadMem(2 bytes @ 0x20000000)  returns TRUE (0002ms, 1346ms total)
T3434 326:363 JLINK_ReadReg(R15 (PC))  returns 0x20000000 (0000ms, 1344ms total)
T3434 326:363 JLINK_ClrBPEx(BPHandle = 0x00000003)  returns 0x00 (0000ms, 1344ms total)
T3434 326:363 JLINK_ReadReg(R0)  returns 0x00000000 (0000ms, 1344ms total)
T3434 326:368 JLINK_WriteMem(0x20000000, 0x0128 Bytes, ...) - Data: 00 BE 0A E0 0D 78 2D 06 68 40 08 24 40 00 00 D3 ... -- CPU_WriteMem(296 bytes @ 0x20000000)  returns 0x128 (0002ms, 1346ms total)
T3434 326:370 JLINK_WriteReg(R0, 0x00000000)  returns 0x00 (0000ms, 1346ms total)
T3434 326:370 JLINK_WriteReg(R1, 0x00B71B00)  returns 0x00 (0000ms, 1346ms total)
T3434 326:370 JLINK_WriteReg(R2, 0x00000002)  returns 0x00 (0000ms, 1346ms total)
T3434 326:370 JLINK_WriteReg(R3, 0x00000000)  returns 0x00 (0000ms, 1346ms total)
T3434 326:370 JLINK_WriteReg(R4, 0x00000000)  returns 0x00 (0000ms, 1346ms total)
T3434 326:370 JLINK_WriteReg(R5, 0x00000000)  returns 0x00 (0000ms, 1346ms total)
T3434 326:370 JLINK_WriteReg(R6, 0x00000000)  returns 0x00 (0000ms, 1346ms total)
T3434 326:370 JLINK_WriteReg(R7, 0x00000000)  returns 0x00 (0000ms, 1346ms total)
T3434 326:370 JLINK_WriteReg(R8, 0x00000000)  returns 0x00 (0000ms, 1346ms total)
T3434 326:370 JLINK_WriteReg(R9, 0x20000124)  returns 0x00 (0000ms, 1346ms total)
T3434 326:370 JLINK_WriteReg(R10, 0x00000000)  returns 0x00 (0000ms, 1346ms total)
T3434 326:370 JLINK_WriteReg(R11, 0x00000000)  returns 0x00 (0000ms, 1346ms total)
T3434 326:370 JLINK_WriteReg(R12, 0x00000000)  returns 0x00 (0000ms, 1346ms total)
T3434 326:370 JLINK_WriteReg(R13 (SP), 0x20001000)  returns 0x00 (0000ms, 1346ms total)
T3434 326:370 JLINK_WriteReg(R14, 0x20000001)  returns 0x00 (0000ms, 1346ms total)
T3434 326:370 JLINK_WriteReg(R15 (PC), 0x20000038)  returns 0x00 (0000ms, 1346ms total)
T3434 326:370 JLINK_WriteReg(XPSR, 0x01000000)  returns 0x00 (0000ms, 1346ms total)
T3434 326:370 JLINK_WriteReg(MSP, 0x20001000)  returns 0x00 (0000ms, 1346ms total)
T3434 326:370 JLINK_WriteReg(PSP, 0x20001000)  returns 0x00 (0000ms, 1346ms total)
T3434 326:370 JLINK_WriteReg(CFBP, 0x00000000)  returns 0x00 (0000ms, 1346ms total)
T3434 326:370 JLINK_SetBPEx(Addr = 0x20000000, Type = 0xFFFFFFF2) -- CPU_ReadMem(2 bytes @ 0x20000000)  returns 0x00000004 (0000ms, 1346ms total)
T3434 326:370 JLINK_Go() -- CPU_WriteMem(2 bytes @ 0x20000000) -- CPU_ReadMem(4 bytes @ 0xE0001000) (0002ms, 1348ms total)
T3434 326:372 JLINK_IsHalted() -- CPU_ReadMem(2 bytes @ 0x20000000)  returns TRUE (0002ms, 1350ms total)
T3434 326:374 JLINK_ReadReg(R15 (PC))  returns 0x20000000 (0000ms, 1348ms total)
T3434 326:374 JLINK_ClrBPEx(BPHandle = 0x00000004)  returns 0x00 (0000ms, 1348ms total)
T3434 326:374 JLINK_ReadReg(R0)  returns 0x00000000 (0000ms, 1348ms total)
T3434 326:374 JLINK_WriteMem(0x20000128, 0x02D8 Bytes, ...) - Data: 18 79 00 20 9D 03 00 00 A5 03 00 00 91 57 00 00 ... -- CPU_WriteMem(728 bytes @ 0x20000128)  returns 0x2D8 (0003ms, 1351ms total)
T3434 326:377 JLINK_WriteMem(0x20000400, 0x0128 Bytes, ...) - Data: 1E BF 10 F8 01 4B AD 1C 0C 1B 09 D1 6D 1E 58 BF ... -- CPU_WriteMem(296 bytes @ 0x20000400)  returns 0x128 (0001ms, 1352ms total)
T3434 326:378 JLINK_WriteReg(R0, 0x00000000)  returns 0x00 (0000ms, 1352ms total)
T3434 326:378 JLINK_WriteReg(R1, 0x00000400)  returns 0x00 (0000ms, 1352ms total)
T3434 326:378 JLINK_WriteReg(R2, 0x20000128)  returns 0x00 (0000ms, 1352ms total)
T3434 326:378 JLINK_WriteReg(R3, 0x00000000)  returns 0x00 (0000ms, 1352ms total)
T3434 326:378 JLINK_WriteReg(R4, 0x00000000)  returns 0x00 (0000ms, 1352ms total)
T3434 326:378 JLINK_WriteReg(R5, 0x00000000)  returns 0x00 (0000ms, 1352ms total)
T3434 326:378 JLINK_WriteReg(R6, 0x00000000)  returns 0x00 (0000ms, 1352ms total)
T3434 326:378 JLINK_WriteReg(R7, 0x00000000)  returns 0x00 (0000ms, 1352ms total)
T3434 326:378 JLINK_WriteReg(R8, 0x00000000)  returns 0x00 (0000ms, 1352ms total)
T3434 326:378 JLINK_WriteReg(R9, 0x20000124)  returns 0x00 (0000ms, 1352ms total)
T3434 326:378 JLINK_WriteReg(R10, 0x00000000)  returns 0x00 (0000ms, 1352ms total)
T3434 326:378 JLINK_WriteReg(R11, 0x00000000)  returns 0x00 (0000ms, 1352ms total)
T3434 326:378 JLINK_WriteReg(R12, 0x00000000)  returns 0x00 (0000ms, 1352ms total)
T3434 326:378 JLINK_WriteReg(R13 (SP), 0x20001000)  returns 0x00 (0000ms, 1352ms total)
T3434 326:378 JLINK_WriteReg(R14, 0x20000001)  returns 0x00 (0000ms, 1352ms total)
T3434 326:378 JLINK_WriteReg(R15 (PC), 0x20000092)  returns 0x00 (0000ms, 1352ms total)
T3434 326:378 JLINK_WriteReg(XPSR, 0x01000000)  returns 0x00 (0000ms, 1352ms total)
T3434 326:378 JLINK_WriteReg(MSP, 0x20001000)  returns 0x00 (0000ms, 1352ms total)
T3434 326:378 JLINK_WriteReg(PSP, 0x20001000)  returns 0x00 (0000ms, 1352ms total)
T3434 326:378 JLINK_WriteReg(CFBP, 0x00000000)  returns 0x00 (0000ms, 1352ms total)
T3434 326:378 JLINK_SetBPEx(Addr = 0x20000000, Type = 0xFFFFFFF2)  returns 0x00000005 (0000ms, 1352ms total)
T3434 326:378 JLINK_Go() -- CPU_ReadMem(4 bytes @ 0xE0001000) (0002ms, 1354ms total)
T3434 326:380 JLINK_IsHalted()  returns FALSE (0000ms, 1354ms total)
T3434 326:384 JLINK_IsHalted()  returns FALSE (0000ms, 1354ms total)
T3434 326:386 JLINK_IsHalted()  returns FALSE (0000ms, 1354ms total)
T3434 326:388 JLINK_IsHalted()  returns FALSE (0000ms, 1354ms total)
T3434 326:390 JLINK_IsHalted() -- CPU_ReadMem(2 bytes @ 0x20000000)  returns TRUE (0002ms, 1356ms total)
T3434 326:392 JLINK_ReadReg(R15 (PC))  returns 0x20000000 (0000ms, 1354ms total)
T3434 326:392 JLINK_ClrBPEx(BPHandle = 0x00000005)  returns 0x00 (0000ms, 1354ms total)
T3434 326:392 JLINK_ReadReg(R0)  returns 0x00000000 (0000ms, 1354ms total)
T3434 326:392 JLINK_WriteMem(0x20000128, 0x02D8 Bytes, ...) - Data: FE E7 FE E7 FE E7 FE E7 FE E7 FE E7 FE E7 FE E7 ... -- CPU_WriteMem(728 bytes @ 0x20000128)  returns 0x2D8 (0003ms, 1357ms total)
T3434 326:395 JLINK_WriteMem(0x20000400, 0x0128 Bytes, ...) - Data: 05 1F 00 F0 13 FA 00 68 00 2C 14 BF 44 68 70 BD ... -- CPU_WriteMem(296 bytes @ 0x20000400)  returns 0x128 (0001ms, 1358ms total)
T3434 326:396 JLINK_WriteReg(R0, 0x00000400)  returns 0x00 (0000ms, 1358ms total)
T3434 326:396 JLINK_WriteReg(R1, 0x00000400)  returns 0x00 (0000ms, 1358ms total)
T3434 326:396 JLINK_WriteReg(R2, 0x20000128)  returns 0x00 (0000ms, 1358ms total)
T3434 326:396 JLINK_WriteReg(R3, 0x00000000)  returns 0x00 (0000ms, 1358ms total)
T3434 326:396 JLINK_WriteReg(R4, 0x00000000)  returns 0x00 (0000ms, 1358ms total)
T3434 326:396 JLINK_WriteReg(R5, 0x00000000)  returns 0x00 (0000ms, 1358ms total)
T3434 326:396 JLINK_WriteReg(R6, 0x00000000)  returns 0x00 (0000ms, 1358ms total)
T3434 326:396 JLINK_WriteReg(R7, 0x00000000)  returns 0x00 (0000ms, 1358ms total)
T3434 326:396 JLINK_WriteReg(R8, 0x00000000)  returns 0x00 (0000ms, 1358ms total)
T3434 326:396 JLINK_WriteReg(R9, 0x20000124)  returns 0x00 (0000ms, 1358ms total)
T3434 326:396 JLINK_WriteReg(R10, 0x00000000)  returns 0x00 (0000ms, 1358ms total)
T3434 326:396 JLINK_WriteReg(R11, 0x00000000)  returns 0x00 (0000ms, 1358ms total)
T3434 326:396 JLINK_WriteReg(R12, 0x00000000)  returns 0x00 (0000ms, 1358ms total)
T3434 326:396 JLINK_WriteReg(R13 (SP), 0x20001000)  returns 0x00 (0000ms, 1358ms total)
T3434 326:396 JLINK_WriteReg(R14, 0x20000001)  returns 0x00 (0000ms, 1358ms total)
T3434 326:396 JLINK_WriteReg(R15 (PC), 0x20000092)  returns 0x00 (0000ms, 1358ms total)
T3434 326:396 JLINK_WriteReg(XPSR, 0x01000000)  returns 0x00 (0000ms, 1358ms total)
T3434 326:396 JLINK_WriteReg(MSP, 0x20001000)  returns 0x00 (0000ms, 1358ms total)
T3434 326:396 JLINK_WriteReg(PSP, 0x20001000)  returns 0x00 (0000ms, 1358ms total)
T3434 326:396 JLINK_WriteReg(CFBP, 0x00000000)  returns 0x00 (0000ms, 1358ms total)
T3434 326:396 JLINK_SetBPEx(Addr = 0x20000000, Type = 0xFFFFFFF2)  returns 0x00000006 (0000ms, 1358ms total)
T3434 326:396 JLINK_Go() -- CPU_ReadMem(4 bytes @ 0xE0001000) (0002ms, 1360ms total)
T3434 326:398 JLINK_IsHalted()  returns FALSE (0000ms, 1360ms total)
T3434 326:400 JLINK_IsHalted()  returns FALSE (0000ms, 1360ms total)
T3434 326:402 JLINK_IsHalted()  returns FALSE (0000ms, 1360ms total)
T3434 326:404 JLINK_IsHalted()  returns FALSE (0000ms, 1360ms total)
T3434 326:406 JLINK_IsHalted()  returns FALSE (0000ms, 1360ms total)
T3434 326:408 JLINK_IsHalted() -- CPU_ReadMem(2 bytes @ 0x20000000)  returns TRUE (0002ms, 1362ms total)
T3434 326:410 JLINK_ReadReg(R15 (PC))  returns 0x20000000 (0000ms, 1360ms total)
T3434 326:410 JLINK_ClrBPEx(BPHandle = 0x00000006)  returns 0x00 (0000ms, 1360ms total)
T3434 326:410 JLINK_ReadReg(R0)  returns 0x00000000 (0000ms, 1360ms total)
T3434 326:410 JLINK_WriteMem(0x20000128, 0x02D8 Bytes, ...) - Data: 88 47 01 2F 06 46 18 D1 E0 69 00 28 20 DA 25 F0 ... -- CPU_WriteMem(728 bytes @ 0x20000128)  returns 0x2D8 (0004ms, 1364ms total)
T3434 326:414 JLINK_WriteMem(0x20000400, 0x0128 Bytes, ...) - Data: 29 BA B1 FA 81 F1 11 F0 18 01 D1 F1 20 00 84 40 ... -- CPU_WriteMem(296 bytes @ 0x20000400)  returns 0x128 (0000ms, 1364ms total)
T3434 326:414 JLINK_WriteReg(R0, 0x00000800)  returns 0x00 (0000ms, 1364ms total)
T3434 326:414 JLINK_WriteReg(R1, 0x00000400)  returns 0x00 (0000ms, 1364ms total)
T3434 326:414 JLINK_WriteReg(R2, 0x20000128)  returns 0x00 (0000ms, 1364ms total)
T3434 326:414 JLINK_WriteReg(R3, 0x00000000)  returns 0x00 (0000ms, 1364ms total)
T3434 326:414 JLINK_WriteReg(R4, 0x00000000)  returns 0x00 (0000ms, 1364ms total)
T3434 326:414 JLINK_WriteReg(R5, 0x00000000)  returns 0x00 (0000ms, 1364ms total)
T3434 326:414 JLINK_WriteReg(R6, 0x00000000)  returns 0x00 (0000ms, 1364ms total)
T3434 326:414 JLINK_WriteReg(R7, 0x00000000)  returns 0x00 (0000ms, 1364ms total)
T3434 326:414 JLINK_WriteReg(R8, 0x00000000)  returns 0x00 (0000ms, 1364ms total)
T3434 326:414 JLINK_WriteReg(R9, 0x20000124)  returns 0x00 (0000ms, 1364ms total)
T3434 326:414 JLINK_WriteReg(R10, 0x00000000)  returns 0x00 (0000ms, 1364ms total)
T3434 326:414 JLINK_WriteReg(R11, 0x00000000)  returns 0x00 (0000ms, 1364ms total)
T3434 326:414 JLINK_WriteReg(R12, 0x00000000)  returns 0x00 (0000ms, 1364ms total)
T3434 326:414 JLINK_WriteReg(R13 (SP), 0x20001000)  returns 0x00 (0000ms, 1364ms total)
T3434 326:414 JLINK_WriteReg(R14, 0x20000001)  returns 0x00 (0000ms, 1364ms total)
T3434 326:414 JLINK_WriteReg(R15 (PC), 0x20000092)  returns 0x00 (0000ms, 1364ms total)
T3434 326:414 JLINK_WriteReg(XPSR, 0x01000000)  returns 0x00 (0000ms, 1364ms total)
T3434 326:414 JLINK_WriteReg(MSP, 0x20001000)  returns 0x00 (0000ms, 1364ms total)
T3434 326:414 JLINK_WriteReg(PSP, 0x20001000)  returns 0x00 (0000ms, 1364ms total)
T3434 326:414 JLINK_WriteReg(CFBP, 0x00000000)  returns 0x00 (0000ms, 1364ms total)
T3434 326:414 JLINK_SetBPEx(Addr = 0x20000000, Type = 0xFFFFFFF2)  returns 0x00000007 (0000ms, 1364ms total)
T3434 326:414 JLINK_Go() -- CPU_ReadMem(4 bytes @ 0xE0001000) (0002ms, 1366ms total)
T3434 326:416 JLINK_IsHalted()  returns FALSE (0000ms, 1366ms total)
T3434 326:418 JLINK_IsHalted()  returns FALSE (0000ms, 1366ms total)
T3434 326:420 JLINK_IsHalted()  returns FALSE (0000ms, 1366ms total)
T3434 326:422 JLINK_IsHalted()  returns FALSE (0000ms, 1366ms total)
T3434 326:424 JLINK_IsHalted()  returns FALSE (0000ms, 1366ms total)
T3434 326:426 JLINK_IsHalted() -- CPU_ReadMem(2 bytes @ 0x20000000)  returns TRUE (0001ms, 1367ms total)
T3434 326:427 JLINK_ReadReg(R15 (PC))  returns 0x20000000 (0001ms, 1367ms total)
T3434 326:428 JLINK_ClrBPEx(BPHandle = 0x00000007)  returns 0x00 (0000ms, 1367ms total)
T3434 326:428 JLINK_ReadReg(R0)  returns 0x00000000 (0000ms, 1367ms total)
T3434 326:428 JLINK_WriteMem(0x20000128, 0x02D8 Bytes, ...) - Data: 10 F4 40 0F 14 D0 00 99 A1 B1 40 02 13 E0 01 2D ... -- CPU_WriteMem(728 bytes @ 0x20000128)  returns 0x2D8 (0003ms, 1370ms total)
T3434 326:431 JLINK_WriteMem(0x20000400, 0x0128 Bytes, ...) - Data: A5 F1 01 05 DC DC 07 E0 D4 E9 01 21 18 F8 01 0B ... -- CPU_WriteMem(296 bytes @ 0x20000400)  returns 0x128 (0001ms, 1371ms total)
T3434 326:432 JLINK_WriteReg(R0, 0x00000C00)  returns 0x00 (0000ms, 1371ms total)
T3434 326:432 JLINK_WriteReg(R1, 0x00000400)  returns 0x00 (0000ms, 1371ms total)
T3434 326:432 JLINK_WriteReg(R2, 0x20000128)  returns 0x00 (0000ms, 1371ms total)
T3434 326:432 JLINK_WriteReg(R3, 0x00000000)  returns 0x00 (0000ms, 1371ms total)
T3434 326:432 JLINK_WriteReg(R4, 0x00000000)  returns 0x00 (0000ms, 1371ms total)
T3434 326:432 JLINK_WriteReg(R5, 0x00000000)  returns 0x00 (0000ms, 1371ms total)
T3434 326:432 JLINK_WriteReg(R6, 0x00000000)  returns 0x00 (0000ms, 1371ms total)
T3434 326:432 JLINK_WriteReg(R7, 0x00000000)  returns 0x00 (0000ms, 1371ms total)
T3434 326:432 JLINK_WriteReg(R8, 0x00000000)  returns 0x00 (0000ms, 1371ms total)
T3434 326:432 JLINK_WriteReg(R9, 0x20000124)  returns 0x00 (0000ms, 1371ms total)
T3434 326:432 JLINK_WriteReg(R10, 0x00000000)  returns 0x00 (0000ms, 1371ms total)
T3434 326:432 JLINK_WriteReg(R11, 0x00000000)  returns 0x00 (0000ms, 1371ms total)
T3434 326:432 JLINK_WriteReg(R12, 0x00000000)  returns 0x00 (0000ms, 1371ms total)
T3434 326:432 JLINK_WriteReg(R13 (SP), 0x20001000)  returns 0x00 (0000ms, 1371ms total)
T3434 326:432 JLINK_WriteReg(R14, 0x20000001)  returns 0x00 (0000ms, 1371ms total)
T3434 326:432 JLINK_WriteReg(R15 (PC), 0x20000092)  returns 0x00 (0000ms, 1371ms total)
T3434 326:432 JLINK_WriteReg(XPSR, 0x01000000)  returns 0x00 (0000ms, 1371ms total)
T3434 326:432 JLINK_WriteReg(MSP, 0x20001000)  returns 0x00 (0000ms, 1371ms total)
T3434 326:432 JLINK_WriteReg(PSP, 0x20001000)  returns 0x00 (0000ms, 1371ms total)
T3434 326:432 JLINK_WriteReg(CFBP, 0x00000000)  returns 0x00 (0000ms, 1371ms total)
T3434 326:432 JLINK_SetBPEx(Addr = 0x20000000, Type = 0xFFFFFFF2)  returns 0x00000008 (0000ms, 1371ms total)
T3434 326:432 JLINK_Go() -- CPU_ReadMem(4 bytes @ 0xE0001000) (0002ms, 1373ms total)
T3434 326:434 JLINK_IsHalted()  returns FALSE (0000ms, 1373ms total)
T3434 326:437 JLINK_IsHalted()  returns FALSE (0000ms, 1373ms total)
T3434 326:439 JLINK_IsHalted()  returns FALSE (0000ms, 1373ms total)
T3434 326:441 JLINK_IsHalted()  returns FALSE (0000ms, 1373ms total)
T3434 326:443 JLINK_IsHalted()  returns FALSE (0000ms, 1373ms total)
T3434 326:445 JLINK_IsHalted() -- CPU_ReadMem(2 bytes @ 0x20000000)  returns TRUE (0001ms, 1374ms total)
T3434 326:446 JLINK_ReadReg(R15 (PC))  returns 0x20000000 (0000ms, 1373ms total)
T3434 326:446 JLINK_ClrBPEx(BPHandle = 0x00000008)  returns 0x00 (0000ms, 1373ms total)
T3434 326:446 JLINK_ReadReg(R0)  returns 0x00000000 (0000ms, 1373ms total)
T3434 326:446 JLINK_WriteMem(0x20000128, 0x02D8 Bytes, ...) - Data: D4 E9 01 21 38 46 90 47 20 6A 40 1C 20 62 C0 1C ... -- CPU_WriteMem(728 bytes @ 0x20000128)  returns 0x2D8 (0003ms, 1376ms total)
T3434 326:449 JLINK_WriteMem(0x20000400, 0x0128 Bytes, ...) - Data: 15 9E AD F8 18 20 84 E8 0B 00 0A 9B 01 21 DB B1 ... -- CPU_WriteMem(296 bytes @ 0x20000400)  returns 0x128 (0002ms, 1378ms total)
T3434 326:451 JLINK_WriteReg(R0, 0x00001000)  returns 0x00 (0000ms, 1378ms total)
T3434 326:451 JLINK_WriteReg(R1, 0x00000400)  returns 0x00 (0000ms, 1378ms total)
T3434 326:451 JLINK_WriteReg(R2, 0x20000128)  returns 0x00 (0000ms, 1378ms total)
T3434 326:451 JLINK_WriteReg(R3, 0x00000000)  returns 0x00 (0000ms, 1378ms total)
T3434 326:451 JLINK_WriteReg(R4, 0x00000000)  returns 0x00 (0000ms, 1378ms total)
T3434 326:451 JLINK_WriteReg(R5, 0x00000000)  returns 0x00 (0000ms, 1378ms total)
T3434 326:451 JLINK_WriteReg(R6, 0x00000000)  returns 0x00 (0000ms, 1378ms total)
T3434 326:451 JLINK_WriteReg(R7, 0x00000000)  returns 0x00 (0000ms, 1378ms total)
T3434 326:451 JLINK_WriteReg(R8, 0x00000000)  returns 0x00 (0000ms, 1378ms total)
T3434 326:451 JLINK_WriteReg(R9, 0x20000124)  returns 0x00 (0000ms, 1378ms total)
T3434 326:451 JLINK_WriteReg(R10, 0x00000000)  returns 0x00 (0000ms, 1378ms total)
T3434 326:451 JLINK_WriteReg(R11, 0x00000000)  returns 0x00 (0000ms, 1378ms total)
T3434 326:451 JLINK_WriteReg(R12, 0x00000000)  returns 0x00 (0000ms, 1378ms total)
T3434 326:451 JLINK_WriteReg(R13 (SP), 0x20001000)  returns 0x00 (0000ms, 1378ms total)
T3434 326:451 JLINK_WriteReg(R14, 0x20000001)  returns 0x00 (0000ms, 1378ms total)
T3434 326:451 JLINK_WriteReg(R15 (PC), 0x20000092)  returns 0x00 (0000ms, 1378ms total)
T3434 326:451 JLINK_WriteReg(XPSR, 0x01000000)  returns 0x00 (0000ms, 1378ms total)
T3434 326:451 JLINK_WriteReg(MSP, 0x20001000)  returns 0x00 (0000ms, 1378ms total)
T3434 326:451 JLINK_WriteReg(PSP, 0x20001000)  returns 0x00 (0000ms, 1378ms total)
T3434 326:451 JLINK_WriteReg(CFBP, 0x00000000)  returns 0x00 (0000ms, 1378ms total)
T3434 326:451 JLINK_SetBPEx(Addr = 0x20000000, Type = 0xFFFFFFF2)  returns 0x00000009 (0000ms, 1378ms total)
T3434 326:451 JLINK_Go() -- CPU_ReadMem(4 bytes @ 0xE0001000) (0002ms, 1380ms total)
T3434 326:453 JLINK_IsHalted()  returns FALSE (0000ms, 1380ms total)
T3434 326:455 JLINK_IsHalted()  returns FALSE (0000ms, 1380ms total)
T3434 326:457 JLINK_IsHalted()  returns FALSE (0000ms, 1380ms total)
T3434 326:459 JLINK_IsHalted()  returns FALSE (0000ms, 1380ms total)
T3434 326:461 JLINK_IsHalted()  returns FALSE (0000ms, 1380ms total)
T3434 326:463 JLINK_IsHalted() -- CPU_ReadMem(2 bytes @ 0x20000000)  returns TRUE (0001ms, 1381ms total)
T3434 326:464 JLINK_ReadReg(R15 (PC))  returns 0x20000000 (0000ms, 1380ms total)
T3434 326:464 JLINK_ClrBPEx(BPHandle = 0x00000009)  returns 0x00 (0000ms, 1380ms total)
T3434 326:464 JLINK_ReadReg(R0)  returns 0x00000000 (0000ms, 1380ms total)
T3434 326:466 JLINK_WriteMem(0x20000128, 0x02D8 Bytes, ...) - Data: 0D 44 40 F8 24 60 7F 1E 93 D5 16 98 00 B1 05 60 ... -- CPU_WriteMem(728 bytes @ 0x20000128)  returns 0x2D8 (0003ms, 1383ms total)
T3434 326:469 JLINK_WriteMem(0x20000400, 0x0128 Bytes, ...) - Data: 78 63 65 70 74 69 6F 6E 3A 20 00 00 41 F2 E8 21 ... -- CPU_WriteMem(296 bytes @ 0x20000400)  returns 0x128 (0001ms, 1384ms total)
T3434 326:470 JLINK_WriteReg(R0, 0x00001400)  returns 0x00 (0000ms, 1384ms total)
T3434 326:470 JLINK_WriteReg(R1, 0x00000400)  returns 0x00 (0000ms, 1384ms total)
T3434 326:470 JLINK_WriteReg(R2, 0x20000128)  returns 0x00 (0000ms, 1384ms total)
T3434 326:470 JLINK_WriteReg(R3, 0x00000000)  returns 0x00 (0000ms, 1384ms total)
T3434 326:470 JLINK_WriteReg(R4, 0x00000000)  returns 0x00 (0000ms, 1384ms total)
T3434 326:470 JLINK_WriteReg(R5, 0x00000000)  returns 0x00 (0000ms, 1384ms total)
T3434 326:470 JLINK_WriteReg(R6, 0x00000000)  returns 0x00 (0000ms, 1384ms total)
T3434 326:470 JLINK_WriteReg(R7, 0x00000000)  returns 0x00 (0000ms, 1384ms total)
T3434 326:470 JLINK_WriteReg(R8, 0x00000000)  returns 0x00 (0000ms, 1384ms total)
T3434 326:470 JLINK_WriteReg(R9, 0x20000124)  returns 0x00 (0000ms, 1384ms total)
T3434 326:470 JLINK_WriteReg(R10, 0x00000000)  returns 0x00 (0000ms, 1384ms total)
T3434 326:470 JLINK_WriteReg(R11, 0x00000000)  returns 0x00 (0000ms, 1384ms total)
T3434 326:470 JLINK_WriteReg(R12, 0x00000000)  returns 0x00 (0000ms, 1384ms total)
T3434 326:470 JLINK_WriteReg(R13 (SP), 0x20001000)  returns 0x00 (0000ms, 1384ms total)
T3434 326:470 JLINK_WriteReg(R14, 0x20000001)  returns 0x00 (0000ms, 1384ms total)
T3434 326:470 JLINK_WriteReg(R15 (PC), 0x20000092)  returns 0x00 (0000ms, 1384ms total)
T3434 326:470 JLINK_WriteReg(XPSR, 0x01000000)  returns 0x00 (0000ms, 1384ms total)
T3434 326:470 JLINK_WriteReg(MSP, 0x20001000)  returns 0x00 (0000ms, 1384ms total)
T3434 326:470 JLINK_WriteReg(PSP, 0x20001000)  returns 0x00 (0000ms, 1384ms total)
T3434 326:470 JLINK_WriteReg(CFBP, 0x00000000)  returns 0x00 (0000ms, 1384ms total)
T3434 326:470 JLINK_SetBPEx(Addr = 0x20000000, Type = 0xFFFFFFF2)  returns 0x0000000A (0000ms, 1384ms total)
T3434 326:470 JLINK_Go() -- CPU_ReadMem(4 bytes @ 0xE0001000) (0002ms, 1386ms total)
T3434 326:472 JLINK_IsHalted()  returns FALSE (0000ms, 1386ms total)
T3434 326:474 JLINK_IsHalted()  returns FALSE (0000ms, 1386ms total)
T3434 326:476 JLINK_IsHalted()  returns FALSE (0000ms, 1386ms total)
T3434 326:478 JLINK_IsHalted()  returns FALSE (0000ms, 1386ms total)
T3434 326:480 JLINK_IsHalted()  returns FALSE (0000ms, 1386ms total)
T3434 326:482 JLINK_IsHalted() -- CPU_ReadMem(2 bytes @ 0x20000000)  returns TRUE (0002ms, 1388ms total)
T3434 326:484 JLINK_ReadReg(R15 (PC))  returns 0x20000000 (0000ms, 1386ms total)
T3434 326:484 JLINK_ClrBPEx(BPHandle = 0x0000000A)  returns 0x00 (0000ms, 1386ms total)
T3434 326:484 JLINK_ReadReg(R0)  returns 0x00000000 (0000ms, 1386ms total)
T3434 326:484 JLINK_WriteMem(0x20000128, 0x02D8 Bytes, ...) - Data: 85 ED 07 AA 85 ED 08 0A C5 E9 09 66 C5 E9 0B 66 ... -- CPU_WriteMem(728 bytes @ 0x20000128)  returns 0x2D8 (0004ms, 1390ms total)
T3434 326:488 JLINK_WriteMem(0x20000400, 0x0128 Bytes, ...) - Data: 81 B1 81 78 71 B1 90 F8 31 10 08 29 0A D8 01 22 ... -- CPU_WriteMem(296 bytes @ 0x20000400)  returns 0x128 (0001ms, 1391ms total)
T3434 326:489 JLINK_WriteReg(R0, 0x00001800)  returns 0x00 (0000ms, 1391ms total)
T3434 326:489 JLINK_WriteReg(R1, 0x00000400)  returns 0x00 (0000ms, 1391ms total)
T3434 326:489 JLINK_WriteReg(R2, 0x20000128)  returns 0x00 (0000ms, 1391ms total)
T3434 326:489 JLINK_WriteReg(R3, 0x00000000)  returns 0x00 (0000ms, 1391ms total)
T3434 326:489 JLINK_WriteReg(R4, 0x00000000)  returns 0x00 (0000ms, 1391ms total)
T3434 326:489 JLINK_WriteReg(R5, 0x00000000)  returns 0x00 (0000ms, 1391ms total)
T3434 326:489 JLINK_WriteReg(R6, 0x00000000)  returns 0x00 (0000ms, 1391ms total)
T3434 326:489 JLINK_WriteReg(R7, 0x00000000)  returns 0x00 (0000ms, 1391ms total)
T3434 326:489 JLINK_WriteReg(R8, 0x00000000)  returns 0x00 (0000ms, 1391ms total)
T3434 326:489 JLINK_WriteReg(R9, 0x20000124)  returns 0x00 (0000ms, 1391ms total)
T3434 326:489 JLINK_WriteReg(R10, 0x00000000)  returns 0x00 (0000ms, 1391ms total)
T3434 326:489 JLINK_WriteReg(R11, 0x00000000)  returns 0x00 (0000ms, 1391ms total)
T3434 326:489 JLINK_WriteReg(R12, 0x00000000)  returns 0x00 (0000ms, 1391ms total)
T3434 326:489 JLINK_WriteReg(R13 (SP), 0x20001000)  returns 0x00 (0000ms, 1391ms total)
T3434 326:489 JLINK_WriteReg(R14, 0x20000001)  returns 0x00 (0000ms, 1391ms total)
T3434 326:489 JLINK_WriteReg(R15 (PC), 0x20000092)  returns 0x00 (0000ms, 1391ms total)
T3434 326:489 JLINK_WriteReg(XPSR, 0x01000000)  returns 0x00 (0000ms, 1391ms total)
T3434 326:489 JLINK_WriteReg(MSP, 0x20001000)  returns 0x00 (0000ms, 1391ms total)
T3434 326:489 JLINK_WriteReg(PSP, 0x20001000)  returns 0x00 (0000ms, 1391ms total)
T3434 326:489 JLINK_WriteReg(CFBP, 0x00000000)  returns 0x00 (0000ms, 1391ms total)
T3434 326:489 JLINK_SetBPEx(Addr = 0x20000000, Type = 0xFFFFFFF2)  returns 0x0000000B (0000ms, 1391ms total)
T3434 326:489 JLINK_Go() -- CPU_ReadMem(4 bytes @ 0xE0001000) (0002ms, 1393ms total)
T3434 326:491 JLINK_IsHalted()  returns FALSE (0000ms, 1393ms total)
T3434 326:493 JLINK_IsHalted()  returns FALSE (0000ms, 1393ms total)
T3434 326:495 JLINK_IsHalted()  returns FALSE (0000ms, 1393ms total)
T3434 326:498 JLINK_IsHalted()  returns FALSE (0000ms, 1393ms total)
T3434 326:500 JLINK_IsHalted() -- CPU_ReadMem(2 bytes @ 0x20000000)  returns TRUE (0002ms, 1395ms total)
T3434 326:502 JLINK_ReadReg(R15 (PC))  returns 0x20000000 (0000ms, 1393ms total)
T3434 326:502 JLINK_ClrBPEx(BPHandle = 0x0000000B)  returns 0x00 (0000ms, 1393ms total)
T3434 326:502 JLINK_ReadReg(R0)  returns 0x00000000 (0000ms, 1393ms total)
T3434 326:503 JLINK_WriteMem(0x20000128, 0x02D8 Bytes, ...) - Data: 81 78 61 B1 90 F8 31 10 08 29 08 D8 01 22 02 FA ... -- CPU_WriteMem(728 bytes @ 0x20000128)  returns 0x2D8 (0003ms, 1396ms total)
T3434 326:506 JLINK_WriteMem(0x20000400, 0x0128 Bytes, ...) - Data: 4C 5A 76 EE C5 1A 77 EE 62 0A 63 EE A1 1A F4 EE ... -- CPU_WriteMem(296 bytes @ 0x20000400)  returns 0x128 (0002ms, 1398ms total)
T3434 326:508 JLINK_WriteReg(R0, 0x00001C00)  returns 0x00 (0000ms, 1398ms total)
T3434 326:508 JLINK_WriteReg(R1, 0x00000400)  returns 0x00 (0000ms, 1398ms total)
T3434 326:508 JLINK_WriteReg(R2, 0x20000128)  returns 0x00 (0000ms, 1398ms total)
T3434 326:508 JLINK_WriteReg(R3, 0x00000000)  returns 0x00 (0000ms, 1398ms total)
T3434 326:508 JLINK_WriteReg(R4, 0x00000000)  returns 0x00 (0000ms, 1398ms total)
T3434 326:508 JLINK_WriteReg(R5, 0x00000000)  returns 0x00 (0000ms, 1398ms total)
T3434 326:508 JLINK_WriteReg(R6, 0x00000000)  returns 0x00 (0000ms, 1398ms total)
T3434 326:508 JLINK_WriteReg(R7, 0x00000000)  returns 0x00 (0000ms, 1398ms total)
T3434 326:508 JLINK_WriteReg(R8, 0x00000000)  returns 0x00 (0000ms, 1398ms total)
T3434 326:508 JLINK_WriteReg(R9, 0x20000124)  returns 0x00 (0000ms, 1398ms total)
T3434 326:508 JLINK_WriteReg(R10, 0x00000000)  returns 0x00 (0000ms, 1398ms total)
T3434 326:508 JLINK_WriteReg(R11, 0x00000000)  returns 0x00 (0000ms, 1398ms total)
T3434 326:508 JLINK_WriteReg(R12, 0x00000000)  returns 0x00 (0000ms, 1398ms total)
T3434 326:508 JLINK_WriteReg(R13 (SP), 0x20001000)  returns 0x00 (0000ms, 1398ms total)
T3434 326:508 JLINK_WriteReg(R14, 0x20000001)  returns 0x00 (0000ms, 1398ms total)
T3434 326:508 JLINK_WriteReg(R15 (PC), 0x20000092)  returns 0x00 (0000ms, 1398ms total)
T3434 326:508 JLINK_WriteReg(XPSR, 0x01000000)  returns 0x00 (0000ms, 1398ms total)
T3434 326:508 JLINK_WriteReg(MSP, 0x20001000)  returns 0x00 (0000ms, 1398ms total)
T3434 326:508 JLINK_WriteReg(PSP, 0x20001000)  returns 0x00 (0000ms, 1398ms total)
T3434 326:508 JLINK_WriteReg(CFBP, 0x00000000)  returns 0x00 (0000ms, 1398ms total)
T3434 326:508 JLINK_SetBPEx(Addr = 0x20000000, Type = 0xFFFFFFF2)  returns 0x0000000C (0000ms, 1398ms total)
T3434 326:508 JLINK_Go() -- CPU_ReadMem(4 bytes @ 0xE0001000) (0001ms, 1399ms total)
T3434 326:509 JLINK_IsHalted()  returns FALSE (0000ms, 1399ms total)
T3434 326:511 JLINK_IsHalted()  returns FALSE (0000ms, 1399ms total)
T3434 326:513 JLINK_IsHalted()  returns FALSE (0000ms, 1399ms total)
T3434 326:516 JLINK_IsHalted()  returns FALSE (0000ms, 1399ms total)
T3434 326:518 JLINK_IsHalted()  returns FALSE (0000ms, 1399ms total)
T3434 326:520 JLINK_IsHalted() -- CPU_ReadMem(2 bytes @ 0x20000000)  returns TRUE (0002ms, 1401ms total)
T3434 326:522 JLINK_ReadReg(R15 (PC))  returns 0x20000000 (0000ms, 1399ms total)
T3434 326:522 JLINK_ClrBPEx(BPHandle = 0x0000000C)  returns 0x00 (0000ms, 1399ms total)
T3434 326:522 JLINK_ReadReg(R0)  returns 0x00000000 (0000ms, 1399ms total)
T3434 326:522 JLINK_WriteMem(0x20000128, 0x02D8 Bytes, ...) - Data: F4 EE E3 6A F1 EE 10 FA A4 BF F0 EE 62 5A F0 EE ... -- CPU_WriteMem(728 bytes @ 0x20000128)  returns 0x2D8 (0003ms, 1402ms total)
T3434 326:525 JLINK_WriteMem(0x20000400, 0x0128 Bytes, ...) - Data: F0 EE 4C 4A 31 EE C6 3A 71 EE 47 1A 22 EE 83 2A ... -- CPU_WriteMem(296 bytes @ 0x20000400)  returns 0x128 (0001ms, 1403ms total)
T3434 326:526 JLINK_WriteReg(R0, 0x00002000)  returns 0x00 (0000ms, 1403ms total)
T3434 326:526 JLINK_WriteReg(R1, 0x00000400)  returns 0x00 (0000ms, 1403ms total)
T3434 326:526 JLINK_WriteReg(R2, 0x20000128)  returns 0x00 (0000ms, 1403ms total)
T3434 326:526 JLINK_WriteReg(R3, 0x00000000)  returns 0x00 (0000ms, 1403ms total)
T3434 326:526 JLINK_WriteReg(R4, 0x00000000)  returns 0x00 (0000ms, 1403ms total)
T3434 326:526 JLINK_WriteReg(R5, 0x00000000)  returns 0x00 (0000ms, 1403ms total)
T3434 326:526 JLINK_WriteReg(R6, 0x00000000)  returns 0x00 (0000ms, 1403ms total)
T3434 326:526 JLINK_WriteReg(R7, 0x00000000)  returns 0x00 (0000ms, 1403ms total)
T3434 326:526 JLINK_WriteReg(R8, 0x00000000)  returns 0x00 (0000ms, 1403ms total)
T3434 326:526 JLINK_WriteReg(R9, 0x20000124)  returns 0x00 (0000ms, 1403ms total)
T3434 326:526 JLINK_WriteReg(R10, 0x00000000)  returns 0x00 (0000ms, 1403ms total)
T3434 326:526 JLINK_WriteReg(R11, 0x00000000)  returns 0x00 (0000ms, 1403ms total)
T3434 326:526 JLINK_WriteReg(R12, 0x00000000)  returns 0x00 (0000ms, 1403ms total)
T3434 326:526 JLINK_WriteReg(R13 (SP), 0x20001000)  returns 0x00 (0000ms, 1403ms total)
T3434 326:526 JLINK_WriteReg(R14, 0x20000001)  returns 0x00 (0000ms, 1403ms total)
T3434 326:526 JLINK_WriteReg(R15 (PC), 0x20000092)  returns 0x00 (0000ms, 1403ms total)
T3434 326:526 JLINK_WriteReg(XPSR, 0x01000000)  returns 0x00 (0000ms, 1403ms total)
T3434 326:526 JLINK_WriteReg(MSP, 0x20001000)  returns 0x00 (0000ms, 1403ms total)
T3434 326:526 JLINK_WriteReg(PSP, 0x20001000)  returns 0x00 (0000ms, 1403ms total)
T3434 326:526 JLINK_WriteReg(CFBP, 0x00000000)  returns 0x00 (0000ms, 1403ms total)
T3434 326:526 JLINK_SetBPEx(Addr = 0x20000000, Type = 0xFFFFFFF2)  returns 0x0000000D (0000ms, 1403ms total)
T3434 326:526 JLINK_Go() -- CPU_ReadMem(4 bytes @ 0xE0001000) (0002ms, 1405ms total)
T3434 326:528 JLINK_IsHalted()  returns FALSE (0000ms, 1405ms total)
T3434 326:530 JLINK_IsHalted()  returns FALSE (0000ms, 1405ms total)
T3434 326:532 JLINK_IsHalted()  returns FALSE (0000ms, 1405ms total)
T3434 326:534 JLINK_IsHalted()  returns FALSE (0000ms, 1405ms total)
T3434 326:536 JLINK_IsHalted()  returns FALSE (0000ms, 1405ms total)
T3434 326:539 JLINK_IsHalted() -- CPU_ReadMem(2 bytes @ 0x20000000)  returns TRUE (0002ms, 1407ms total)
T3434 326:541 JLINK_ReadReg(R15 (PC))  returns 0x20000000 (0000ms, 1405ms total)
T3434 326:541 JLINK_ClrBPEx(BPHandle = 0x0000000D)  returns 0x00 (0000ms, 1405ms total)
T3434 326:541 JLINK_ReadReg(R0)  returns 0x00000000 (0000ms, 1405ms total)
T3434 326:541 JLINK_WriteMem(0x20000128, 0x02D8 Bytes, ...) - Data: 23 0A 32 EE C3 6A 34 EE 61 5A 20 EE 86 6A B4 EE ... -- CPU_WriteMem(728 bytes @ 0x20000128)  returns 0x2D8 (0003ms, 1408ms total)
T3434 326:544 JLINK_WriteMem(0x20000400, 0x0128 Bytes, ...) - Data: 65 EE 29 5A 61 EE 29 2A C2 F2 00 01 50 EE A8 4A ... -- CPU_WriteMem(296 bytes @ 0x20000400)  returns 0x128 (0001ms, 1409ms total)
T3434 326:545 JLINK_WriteReg(R0, 0x00002400)  returns 0x00 (0000ms, 1409ms total)
T3434 326:545 JLINK_WriteReg(R1, 0x00000400)  returns 0x00 (0000ms, 1409ms total)
T3434 326:545 JLINK_WriteReg(R2, 0x20000128)  returns 0x00 (0000ms, 1409ms total)
T3434 326:545 JLINK_WriteReg(R3, 0x00000000)  returns 0x00 (0000ms, 1409ms total)
T3434 326:545 JLINK_WriteReg(R4, 0x00000000)  returns 0x00 (0000ms, 1409ms total)
T3434 326:545 JLINK_WriteReg(R5, 0x00000000)  returns 0x00 (0000ms, 1409ms total)
T3434 326:545 JLINK_WriteReg(R6, 0x00000000)  returns 0x00 (0000ms, 1409ms total)
T3434 326:545 JLINK_WriteReg(R7, 0x00000000)  returns 0x00 (0000ms, 1409ms total)
T3434 326:545 JLINK_WriteReg(R8, 0x00000000)  returns 0x00 (0000ms, 1409ms total)
T3434 326:545 JLINK_WriteReg(R9, 0x20000124)  returns 0x00 (0000ms, 1409ms total)
T3434 326:545 JLINK_WriteReg(R10, 0x00000000)  returns 0x00 (0000ms, 1409ms total)
T3434 326:545 JLINK_WriteReg(R11, 0x00000000)  returns 0x00 (0000ms, 1409ms total)
T3434 326:545 JLINK_WriteReg(R12, 0x00000000)  returns 0x00 (0000ms, 1409ms total)
T3434 326:545 JLINK_WriteReg(R13 (SP), 0x20001000)  returns 0x00 (0000ms, 1409ms total)
T3434 326:545 JLINK_WriteReg(R14, 0x20000001)  returns 0x00 (0000ms, 1409ms total)
T3434 326:545 JLINK_WriteReg(R15 (PC), 0x20000092)  returns 0x00 (0000ms, 1409ms total)
T3434 326:546 JLINK_WriteReg(XPSR, 0x01000000)  returns 0x00 (0000ms, 1410ms total)
T3434 326:546 JLINK_WriteReg(MSP, 0x20001000)  returns 0x00 (0000ms, 1410ms total)
T3434 326:546 JLINK_WriteReg(PSP, 0x20001000)  returns 0x00 (0000ms, 1410ms total)
T3434 326:546 JLINK_WriteReg(CFBP, 0x00000000)  returns 0x00 (0000ms, 1410ms total)
T3434 326:546 JLINK_SetBPEx(Addr = 0x20000000, Type = 0xFFFFFFF2)  returns 0x0000000E (0000ms, 1410ms total)
T3434 326:546 JLINK_Go() -- CPU_ReadMem(4 bytes @ 0xE0001000) (0001ms, 1411ms total)
T3434 326:547 JLINK_IsHalted()  returns FALSE (0000ms, 1411ms total)
T3434 326:551 JLINK_IsHalted()  returns FALSE (0000ms, 1411ms total)
T3434 326:553 JLINK_IsHalted()  returns FALSE (0000ms, 1411ms total)
T3434 326:555 JLINK_IsHalted()  returns FALSE (0000ms, 1411ms total)
T3434 326:557 JLINK_IsHalted() -- CPU_ReadMem(2 bytes @ 0x20000000)  returns TRUE (0002ms, 1413ms total)
T3434 326:559 JLINK_ReadReg(R15 (PC))  returns 0x20000000 (0000ms, 1411ms total)
T3434 326:559 JLINK_ClrBPEx(BPHandle = 0x0000000E)  returns 0x00 (0000ms, 1411ms total)
T3434 326:559 JLINK_ReadReg(R0)  returns 0x00000000 (0000ms, 1411ms total)
T3434 326:559 JLINK_WriteMem(0x20000128, 0x02D8 Bytes, ...) - Data: 28 6A 8A ED 0D 2A 07 EE 28 4A 36 EE 43 5A 05 EE ... -- CPU_WriteMem(728 bytes @ 0x20000128)  returns 0x2D8 (0003ms, 1414ms total)
T3434 326:562 JLINK_WriteMem(0x20000400, 0x0128 Bytes, ...) - Data: 26 E0 80 ED 16 0A 80 ED 17 0A 80 ED 18 0A 80 ED ... -- CPU_WriteMem(296 bytes @ 0x20000400)  returns 0x128 (0001ms, 1415ms total)
T3434 326:563 JLINK_WriteReg(R0, 0x00002800)  returns 0x00 (0000ms, 1415ms total)
T3434 326:563 JLINK_WriteReg(R1, 0x00000400)  returns 0x00 (0000ms, 1415ms total)
T3434 326:563 JLINK_WriteReg(R2, 0x20000128)  returns 0x00 (0000ms, 1415ms total)
T3434 326:563 JLINK_WriteReg(R3, 0x00000000)  returns 0x00 (0000ms, 1415ms total)
T3434 326:563 JLINK_WriteReg(R4, 0x00000000)  returns 0x00 (0000ms, 1415ms total)
T3434 326:563 JLINK_WriteReg(R5, 0x00000000)  returns 0x00 (0000ms, 1415ms total)
T3434 326:563 JLINK_WriteReg(R6, 0x00000000)  returns 0x00 (0000ms, 1415ms total)
T3434 326:563 JLINK_WriteReg(R7, 0x00000000)  returns 0x00 (0000ms, 1415ms total)
T3434 326:563 JLINK_WriteReg(R8, 0x00000000)  returns 0x00 (0000ms, 1415ms total)
T3434 326:563 JLINK_WriteReg(R9, 0x20000124)  returns 0x00 (0000ms, 1415ms total)
T3434 326:563 JLINK_WriteReg(R10, 0x00000000)  returns 0x00 (0000ms, 1415ms total)
T3434 326:563 JLINK_WriteReg(R11, 0x00000000)  returns 0x00 (0000ms, 1415ms total)
T3434 326:563 JLINK_WriteReg(R12, 0x00000000)  returns 0x00 (0000ms, 1415ms total)
T3434 326:563 JLINK_WriteReg(R13 (SP), 0x20001000)  returns 0x00 (0000ms, 1415ms total)
T3434 326:563 JLINK_WriteReg(R14, 0x20000001)  returns 0x00 (0000ms, 1415ms total)
T3434 326:563 JLINK_WriteReg(R15 (PC), 0x20000092)  returns 0x00 (0000ms, 1415ms total)
T3434 326:563 JLINK_WriteReg(XPSR, 0x01000000)  returns 0x00 (0000ms, 1415ms total)
T3434 326:563 JLINK_WriteReg(MSP, 0x20001000)  returns 0x00 (0000ms, 1415ms total)
T3434 326:563 JLINK_WriteReg(PSP, 0x20001000)  returns 0x00 (0000ms, 1415ms total)
T3434 326:563 JLINK_WriteReg(CFBP, 0x00000000)  returns 0x00 (0000ms, 1415ms total)
T3434 326:563 JLINK_SetBPEx(Addr = 0x20000000, Type = 0xFFFFFFF2)  returns 0x0000000F (0000ms, 1415ms total)
